
T132C 000:160 SEGGER J-Link V6.16c Log File (0000ms, 0041ms total)
T132C 000:160 DLL Compiled: Jun 16 2017 18:14:49 (0000ms, 0041ms total)
T132C 000:160 Logging started @ 2018-03-20 10:44 (0000ms, 0041ms total)
T132C 000:160 JLINK_SetWarnOutHandler(...) (0000ms, 0041ms total)
T132C 000:160 JLINK_OpenEx(...)
Firmware: J-Link ARM V8 compiled Jan 31 2018 18:34:52
Hardware: V8.00
S/N: 20080643
Feature(s): RDI,FlashDL,FlashBP,JFlash,GDBFullWEBSRV Webserver running on local port 19080 (0020ms, 0061ms total)
T132C 000:160   returns O.K. (0020ms, 0061ms total)
T132C 000:180 JLINK_GetEmuCaps()  returns 0xB9FF7BBF (0000ms, 0061ms total)
T132C 000:180 JLINK_TIF_GetAvailable(...) (0001ms, 0062ms total)
T132C 000:181 JLINK_SetErrorOutHandler(...) (0000ms, 0062ms total)
T132C 000:181 JLINK_ExecCommand("ProjectFile = "D:\K5_Project\Project\WIFI¡ªESP8266\ESP8266_GDEW042T2_0315\Project\RVMDK£¨uv4£©\JLinkSettings.ini"", ...).   returns 0x00 (0083ms, 0145ms total)
T132C 000:266 JLINK_ExecCommand("Device = STM32F103ZE", ...). Device "STM32F103ZE" selected.  returns 0x00 (0002ms, 0147ms total)
T132C 000:268 JLINK_ExecCommand("DisableConnectionTimeout", ...).   returns 0x01 (0000ms, 0147ms total)
T132C 000:268 JLINK_GetHardwareVersion()  returns 0x13880 (0000ms, 0147ms total)
T132C 000:268 JLINK_GetDLLVersion()  returns 61603 (0000ms, 0147ms total)
T132C 000:268 JLINK_GetFirmwareString(...) (0000ms, 0147ms total)
T132C 000:271 JLINK_GetDLLVersion()  returns 61603 (0000ms, 0147ms total)
T132C 000:271 JLINK_GetCompileDateTime() (0000ms, 0147ms total)
T132C 000:277 JLINK_GetFirmwareString(...) (0000ms, 0147ms total)
T132C 000:279 JLINK_GetHardwareVersion()  returns 0x13880 (0000ms, 0147ms total)
T132C 000:285 JLINK_TIF_Select(JLINKARM_TIF_JTAG)  returns 0x00 (0005ms, 0152ms total)
T132C 000:291 JLINK_SetSpeed(5000) (0000ms, 0152ms total)
T132C 000:291 JLINK_GetIdData(...) >0x2F8 JTAG>TotalIRLen = 9, IRPrint = 0x0011 >0x30 JTAG> >0x50 JTAG>JTAG chain detection found 2 devices: #0 Id: 0x3BA00477, IRLen: 04, CoreSight JTAG-DP #1 Id: 0x06414041, IRLen: 05, STM32 Boundary Scan >0x40 JTAG> >0x40 JTAG> >0x40 JTAG> >0x30 JTAG> >0x40 JTAG> >0x40 JTAG> >0x40 JTAG> >0x40 JTAG> >0x40 JTAG> >0x40 JTAG> >0x40 JTAG> >0x40 JTAG> >0x40 JTAG> >0x40 JTAG> >0x40 JTAG> >0x40 JTAG> >0x40 JTAG> >0x40 JTAG> >0x40 JTAG> >0x40 JTAG> >0x40 JTAG> >0x40 JTAG>
 >0x40 JTAG> >0x40 JTAG> >0x40 JTAG> >0x40 JTAG> >0x40 JTAG> >0x2F8 JTAG>TotalIRLen = 9, IRPrint = 0x0011 >0x30 JTAG> >0x50 JTAG>JTAG chain detection found 2 devices: #0 Id: 0x3BA00477, IRLen: 04, CoreSight JTAG-DP #1 Id: 0x06414041, IRLen: 05, STM32 Boundary ScanScanning APs, stopping at first AHB-AP found. >0x80 JTAG> >0x50 JTAG> >0x50 JTAG>AP[0] IDR: 0x14770011 (AHB-AP) >0x40 JTAG> >0x50 JTAG> >0x50 JTAG>AHB-AP ROM: 0xE00FF000 (Base addr. of first ROM table) >0x80 JTAG> >0x40 JTAG> >0x30 JTAG>
 >0x40 JTAG> >0x40 JTAG> >0x30 JTAG> >0x40 JTAG> >0x50 JTAG>CPUID reg.: 0x411FC231. Implementer code: 0x41 (ARM)Found Cortex-M3 r1p1, Little endian. -- CPU_ReadMem(4 bytes @ 0xE000EDF0) -- CPU_WriteMem(4 bytes @ 0xE000EDF0) -- CPU_ReadMem(4 bytes @ 0xE0002000)FPUnit: 6 code (BP) slots and 2 literal slots -- CPU_ReadMem(4 bytes @ 0xE000EDFC) -- CPU_WriteMem(4 bytes @ 0xE000EDFC) -- CPU_ReadMem(4 bytes @ 0xE0001000) -- CPU_WriteMem(4 bytes @ 0xE0001000) -- CPU_ReadMem(4 bytes @ 0xE000ED88)
 -- CPU_WriteMem(4 bytes @ 0xE000ED88) -- CPU_ReadMem(4 bytes @ 0xE000ED88) -- CPU_WriteMem(4 bytes @ 0xE000ED88)CoreSight components:ROMTbl[0] @ E00FF000 -- CPU_ReadMem(16 bytes @ 0xE00FF000) -- CPU_ReadMem(16 bytes @ 0xE000EFF0) -- CPU_ReadMem(16 bytes @ 0xE000EFE0)ROMTbl[0][0]: E000E000, CID: B105E00D, PID: 001BB000 SCS -- CPU_ReadMem(16 bytes @ 0xE0001FF0) -- CPU_ReadMem(16 bytes @ 0xE0001FE0)ROMTbl[0][1]: E0001000, CID: B105E00D, PID: 001BB002 DWT -- CPU_ReadMem(16 bytes @ 0xE0002FF0)
 -- CPU_ReadMem(16 bytes @ 0xE0002FE0)ROMTbl[0][2]: E0002000, CID: B105E00D, PID: 000BB003 FPB -- CPU_ReadMem(16 bytes @ 0xE0000FF0) -- CPU_ReadMem(16 bytes @ 0xE0000FE0)ROMTbl[0][3]: E0000000, CID: B105E00D, PID: 001BB001 ITM -- CPU_ReadMem(16 bytes @ 0xE00FF010) -- CPU_ReadMem(16 bytes @ 0xE0040FF0) -- CPU_ReadMem(16 bytes @ 0xE0040FE0)ROMTbl[0][4]: E0040000, CID: B105900D, PID: 001BB923 TPIU-Lite -- CPU_ReadMem(16 bytes @ 0xE0041FF0) -- CPU_ReadMem(16 bytes @ 0xE0041FE0)
ROMTbl[0][5]: E0041000, CID: B105900D, PID: 101BB924 ETM-M3 ScanLen=9 NumDevices=2 aId[0]=0x3BA00477 aIrRead[0]=0 aScanLen[0]=0 aScanRead[0]=0 (0119ms, 0271ms total)
T132C 000:410 JLINK_JTAG_GetDeviceID(DeviceIndex = 0)  returns 0x3BA00477 (0000ms, 0271ms total)
T132C 000:410 JLINK_JTAG_GetDeviceInfo(DeviceIndex = 0)  returns 0x00 (0000ms, 0271ms total)
T132C 000:410 JLINK_JTAG_GetDeviceID(DeviceIndex = 1)  returns 0x6414041 (0000ms, 0271ms total)
T132C 000:410 JLINK_JTAG_GetDeviceInfo(DeviceIndex = 1)  returns 0x00 (0000ms, 0271ms total)
T132C 000:410 JLINK_GetDLLVersion()  returns 61603 (0000ms, 0271ms total)
T132C 000:410 JLINK_CORE_GetFound()  returns 0x30000FF (0000ms, 0271ms total)
T132C 000:410 JLINK_GetDebugInfo(0x100 = JLINKARM_ROM_TABLE_ADDR_INDEX) -- Value=0xE00FF000  returns 0x00 (0000ms, 0271ms total)
T132C 000:412 JLINK_GetDebugInfo(0x100 = JLINKARM_ROM_TABLE_ADDR_INDEX) -- Value=0xE00FF000  returns 0x00 (0000ms, 0271ms total)
T132C 000:412 JLINK_GetDebugInfo(0x101 = JLINKARM_DEBUG_INFO_ETM_ADDR_INDEX) -- Value=0xE0041000  returns 0x00 (0000ms, 0271ms total)
T132C 000:412 JLINK_ReadMemEx(0xE0041FD0, 0x0020 Bytes, ..., Flags = 0x02000004) -- CPU_ReadMem(32 bytes @ 0xE0041FD0) - Data: 04 00 00 00 00 00 00 00 00 00 00 00 00 00 00 00 ...  returns 0x20 (0001ms, 0272ms total)
T132C 000:413 JLINK_GetDebugInfo(0x102 = JLINKARM_DEBUG_INFO_MTB_ADDR_INDEX) -- Value=0x00000000  returns 0x00 (0001ms, 0273ms total)
T132C 000:414 JLINK_GetDebugInfo(0x103 = JLINKARM_DEBUG_INFO_TPIU_ADDR_INDEX) -- Value=0xE0040000  returns 0x00 (0000ms, 0273ms total)
T132C 000:414 JLINK_GetDebugInfo(0x104 = JLINKARM_DEBUG_INFO_ITM_ADDR_INDEX) -- Value=0xE0000000  returns 0x00 (0000ms, 0273ms total)
T132C 000:414 JLINK_GetDebugInfo(0x105 = JLINKARM_DEBUG_INFO_DWT_ADDR_INDEX) -- Value=0xE0001000  returns 0x00 (0000ms, 0273ms total)
T132C 000:414 JLINK_GetDebugInfo(0x106 = JLINKARM_DEBUG_INFO_FPB_ADDR_INDEX) -- Value=0xE0002000  returns 0x00 (0000ms, 0273ms total)
T132C 000:414 JLINK_GetDebugInfo(0x107 = JLINKARM_DEBUG_INFO_NVIC_ADDR_INDEX) -- Value=0xE000E000  returns 0x00 (0000ms, 0273ms total)
T132C 000:414 JLINK_GetDebugInfo(0x10C = JLINKARM_DEBUG_INFO_DBG_ADDR_INDEX) -- Value=0xE000EDF0  returns 0x00 (0000ms, 0273ms total)
T132C 000:414 JLINK_ReadMemU32(0xE000ED00, 0x0001 Items, ...) -- CPU_ReadMem(4 bytes @ 0xE000ED00) - Data: 31 C2 1F 41  returns 0x01 (0001ms, 0274ms total)
T132C 000:415 JLINK_GetDebugInfo(0x10F = JLINKARM_DEBUG_INFO_HAS_CORTEX_M_SECURITY_EXT_INDEX) -- Value=0x00000000  returns 0x00 (0000ms, 0274ms total)
T132C 000:415 JLINK_SetResetType(JLINKARM_CM3_RESET_TYPE_NORMAL)  returns JLINKARM_CM3_RESET_TYPE_NORMAL (0000ms, 0274ms total)
T132C 000:415 JLINK_Reset() -- CPU is running -- CPU_WriteMem(4 bytes @ 0xE000EDF0) -- CPU is running -- CPU_WriteMem(4 bytes @ 0xE000EDFC)Setting AIRCR.SYSRESETREQ -- CPU is running -- CPU_WriteMem(4 bytes @ 0xE000ED0C) -- CPU_ReadMem(4 bytes @ 0xE000ED0C) -- CPU_ReadMem(4 bytes @ 0xE000EDF0) -- CPU_ReadMem(4 bytes @ 0xE000EDF0) -- CPU_ReadMem(4 bytes @ 0xE000EDF0) -- CPU is running -- CPU_WriteMem(4 bytes @ 0xE000EDF0) -- CPU is running -- CPU_WriteMem(4 bytes @ 0xE000EDFC)
 -- CPU_ReadMem(4 bytes @ 0xE000EDF0) >0x80 JTAG> >0x40 JTAG> >0x30 JTAG> >0x40 JTAG> >0x50 JTAG> >0x40 JTAG> -- CPU_WriteMem(4 bytes @ 0xE000EDFC) -- CPU_WriteMem(4 bytes @ 0xE0001028) -- CPU_WriteMem(4 bytes @ 0xE0001038) -- CPU_WriteMem(4 bytes @ 0xE0001048) -- CPU_WriteMem(4 bytes @ 0xE0001058) -- CPU_WriteMem(4 bytes @ 0xE0002000) -- CPU_ReadMem(4 bytes @ 0xE000EDFC) -- CPU_ReadMem(4 bytes @ 0xE0001000) (0090ms, 0364ms total)
T132C 000:505 JLINK_Halt()  returns 0x00 (0000ms, 0364ms total)
T132C 000:505 JLINK_ReadMemU32(0xE000EDF0, 0x0001 Items, ...) -- CPU_ReadMem(4 bytes @ 0xE000EDF0) - Data: 03 00 03 00  returns 0x01 (0001ms, 0365ms total)
T132C 000:506 JLINK_WriteU32(0xE000EDF0, 0xA05F0003) -- CPU_WriteMem(4 bytes @ 0xE000EDF0)  returns 0x00 (0001ms, 0366ms total)
T132C 000:507 JLINK_WriteU32(0xE000EDFC, 0x01000000) -- CPU_WriteMem(4 bytes @ 0xE000EDFC)  returns 0x00 (0001ms, 0367ms total)
T132C 000:517 JLINK_GetHWStatus(...)  returns 0x00 (0001ms, 0368ms total)
T132C 000:524 JLINK_GetNumBPUnits(Type = 0xFFFFFF00)  returns 0x06 (0000ms, 0368ms total)
T132C 000:524 JLINK_GetNumBPUnits(Type = 0xF0)  returns 0x2000 (0000ms, 0368ms total)
T132C 000:524 JLINK_GetNumWPUnits()  returns 0x04 (0001ms, 0369ms total)
T132C 000:530 JLINK_GetSpeed()  returns 0x12C0 (0000ms, 0369ms total)
T132C 000:533 JLINK_ReadMemU32(0xE000E004, 0x0001 Items, ...) -- CPU_ReadMem(4 bytes @ 0xE000E004) - Data: 01 00 00 00  returns 0x01 (0001ms, 0370ms total)
T132C 000:534 JLINK_ReadMemU32(0xE000E004, 0x0001 Items, ...) -- CPU_ReadMem(4 bytes @ 0xE000E004) - Data: 01 00 00 00  returns 0x01 (0001ms, 0371ms total)
T132C 000:535 JLINK_WriteMemEx(0xE0001000, 0x001C Bytes, ..., Flags = 0x02000004) - Data: 01 00 00 00 00 00 00 00 00 00 00 00 00 00 00 00 ... -- CPU_WriteMem(28 bytes @ 0xE0001000)  returns 0x1C (0002ms, 0373ms total)
T132C 000:537 JLINK_Halt()  returns 0x00 (0000ms, 0373ms total)
T132C 000:537 JLINK_IsHalted()  returns TRUE (0000ms, 0373ms total)
T132C 000:540 JLINK_WriteMem(0x20000000, 0x0164 Bytes, ...) - Data: 00 BE 0A E0 0D 78 2D 06 68 40 08 24 40 00 00 D3 ... -- CPU_WriteMem(356 bytes @ 0x20000000)  returns 0x164 (0004ms, 0377ms total)
T132C 000:544 JLINK_WriteReg(R0, 0x08000000)  returns 0x00 (0000ms, 0377ms total)
T132C 000:544 JLINK_WriteReg(R1, 0x007A1200)  returns 0x00 (0000ms, 0377ms total)
T132C 000:544 JLINK_WriteReg(R2, 0x00000001)  returns 0x00 (0000ms, 0377ms total)
T132C 000:544 JLINK_WriteReg(R3, 0x00000000)  returns 0x00 (0000ms, 0377ms total)
T132C 000:544 JLINK_WriteReg(R4, 0x00000000)  returns 0x00 (0000ms, 0377ms total)
T132C 000:544 JLINK_WriteReg(R5, 0x00000000)  returns 0x00 (0000ms, 0377ms total)
T132C 000:544 JLINK_WriteReg(R6, 0x00000000)  returns 0x00 (0000ms, 0377ms total)
T132C 000:544 JLINK_WriteReg(R7, 0x00000000)  returns 0x00 (0000ms, 0377ms total)
T132C 000:544 JLINK_WriteReg(R8, 0x00000000)  returns 0x00 (0000ms, 0377ms total)
T132C 000:544 JLINK_WriteReg(R9, 0x20000160)  returns 0x00 (0000ms, 0377ms total)
T132C 000:544 JLINK_WriteReg(R10, 0x00000000)  returns 0x00 (0000ms, 0377ms total)
T132C 000:544 JLINK_WriteReg(R11, 0x00000000)  returns 0x00 (0000ms, 0377ms total)
T132C 000:544 JLINK_WriteReg(R12, 0x00000000)  returns 0x00 (0000ms, 0377ms total)
T132C 000:544 JLINK_WriteReg(R13 (SP), 0x20000800)  returns 0x00 (0001ms, 0378ms total)
T132C 000:545 JLINK_WriteReg(R14, 0x20000001)  returns 0x00 (0000ms, 0378ms total)
T132C 000:545 JLINK_WriteReg(R15 (PC), 0x20000038)  returns 0x00 (0000ms, 0378ms total)
T132C 000:545 JLINK_WriteReg(XPSR, 0x01000000)  returns 0x00 (0000ms, 0378ms total)
T132C 000:545 JLINK_WriteReg(MSP, 0x20000800)  returns 0x00 (0000ms, 0378ms total)
T132C 000:545 JLINK_WriteReg(PSP, 0x20000800)  returns 0x00 (0000ms, 0378ms total)
T132C 000:545 JLINK_WriteReg(CFBP, 0x00000000)  returns 0x00 (0000ms, 0378ms total)
T132C 000:545 JLINK_SetBPEx(Addr = 0x20000000, Type = 0xFFFFFFF2) -- CPU_ReadMem(2 bytes @ 0x20000000)  returns 0x00000001 (0001ms, 0379ms total)
T132C 000:546 JLINK_Go() -- CPU_WriteMem(2 bytes @ 0x20000000) -- CPU_ReadMem(4 bytes @ 0xE0001000) -- CPU_WriteMem(4 bytes @ 0xE0002008) -- CPU_WriteMem(4 bytes @ 0xE000200C) -- CPU_WriteMem(4 bytes @ 0xE0002010) -- CPU_WriteMem(4 bytes @ 0xE0002014) -- CPU_WriteMem(4 bytes @ 0xE0002018) -- CPU_WriteMem(4 bytes @ 0xE000201C) -- CPU_WriteMem(4 bytes @ 0xE0001004) (0008ms, 0387ms total)
T132C 000:554 JLINK_IsHalted() -- CPU_ReadMem(2 bytes @ 0x20000000)  returns TRUE (0005ms, 0392ms total)
T132C 000:559 JLINK_ReadReg(R15 (PC))  returns 0x20000000 (0000ms, 0387ms total)
T132C 000:559 JLINK_ClrBPEx(BPHandle = 0x00000001)  returns 0x00 (0000ms, 0387ms total)
T132C 000:559 JLINK_ReadReg(R0)  returns 0x00000000 (0000ms, 0387ms total)
T132C 000:559 JLINK_WriteReg(R0, 0x08000000)  returns 0x00 (0000ms, 0387ms total)
T132C 000:559 JLINK_WriteReg(R1, 0x007A1200)  returns 0x00 (0000ms, 0387ms total)
T132C 000:559 JLINK_WriteReg(R2, 0x00000001)  returns 0x00 (0000ms, 0387ms total)
T132C 000:559 JLINK_WriteReg(R3, 0x00000000)  returns 0x00 (0000ms, 0387ms total)
T132C 000:560 JLINK_WriteReg(R4, 0x00000000)  returns 0x00 (0000ms, 0388ms total)
T132C 000:560 JLINK_WriteReg(R5, 0x00000000)  returns 0x00 (0000ms, 0388ms total)
T132C 000:560 JLINK_WriteReg(R6, 0x00000000)  returns 0x00 (0000ms, 0388ms total)
T132C 000:560 JLINK_WriteReg(R7, 0x00000000)  returns 0x00 (0000ms, 0388ms total)
T132C 000:560 JLINK_WriteReg(R8, 0x00000000)  returns 0x00 (0000ms, 0388ms total)
T132C 000:560 JLINK_WriteReg(R9, 0x20000160)  returns 0x00 (0000ms, 0388ms total)
T132C 000:560 JLINK_WriteReg(R10, 0x00000000)  returns 0x00 (0000ms, 0388ms total)
T132C 000:560 JLINK_WriteReg(R11, 0x00000000)  returns 0x00 (0000ms, 0388ms total)
T132C 000:560 JLINK_WriteReg(R12, 0x00000000)  returns 0x00 (0000ms, 0388ms total)
T132C 000:560 JLINK_WriteReg(R13 (SP), 0x20000800)  returns 0x00 (0000ms, 0388ms total)
T132C 000:560 JLINK_WriteReg(R14, 0x20000001)  returns 0x00 (0000ms, 0388ms total)
T132C 000:560 JLINK_WriteReg(R15 (PC), 0x2000007C)  returns 0x00 (0000ms, 0388ms total)
T132C 000:560 JLINK_WriteReg(XPSR, 0x01000000)  returns 0x00 (0000ms, 0388ms total)
T132C 000:560 JLINK_WriteReg(MSP, 0x20000800)  returns 0x00 (0000ms, 0388ms total)
T132C 000:560 JLINK_WriteReg(PSP, 0x20000800)  returns 0x00 (0000ms, 0388ms total)
T132C 000:560 JLINK_WriteReg(CFBP, 0x00000000)  returns 0x00 (0000ms, 0388ms total)
T132C 000:560 JLINK_SetBPEx(Addr = 0x20000000, Type = 0xFFFFFFF2)  returns 0x00000002 (0000ms, 0388ms total)
T132C 000:560 JLINK_Go() -- CPU_ReadMem(4 bytes @ 0xE0001000) (0003ms, 0391ms total)
T132C 000:563 JLINK_IsHalted()  returns FALSE (0001ms, 0392ms total)
T132C 000:615 JLINK_IsHalted() -- CPU_ReadMem(2 bytes @ 0x20000000)  returns TRUE (0005ms, 0396ms total)
T132C 000:620 JLINK_ReadReg(R15 (PC))  returns 0x20000000 (0000ms, 0391ms total)
T132C 000:620 JLINK_ClrBPEx(BPHandle = 0x00000002)  returns 0x00 (0000ms, 0391ms total)
T132C 000:620 JLINK_ReadReg(R0)  returns 0x00000000 (0000ms, 0391ms total)
T132C 000:671 JLINK_WriteReg(R0, 0x00000001)  returns 0x00 (0000ms, 0391ms total)
T132C 000:671 JLINK_WriteReg(R1, 0x007A1200)  returns 0x00 (0000ms, 0391ms total)
T132C 000:671 JLINK_WriteReg(R2, 0x00000001)  returns 0x00 (0000ms, 0391ms total)
T132C 000:671 JLINK_WriteReg(R3, 0x00000000)  returns 0x00 (0000ms, 0391ms total)
T132C 000:671 JLINK_WriteReg(R4, 0x00000000)  returns 0x00 (0000ms, 0391ms total)
T132C 000:671 JLINK_WriteReg(R5, 0x00000000)  returns 0x00 (0000ms, 0391ms total)
T132C 000:671 JLINK_WriteReg(R6, 0x00000000)  returns 0x00 (0000ms, 0391ms total)
T132C 000:671 JLINK_WriteReg(R7, 0x00000000)  returns 0x00 (0000ms, 0391ms total)
T132C 000:671 JLINK_WriteReg(R8, 0x00000000)  returns 0x00 (0000ms, 0391ms total)
T132C 000:671 JLINK_WriteReg(R9, 0x20000160)  returns 0x00 (0000ms, 0391ms total)
T132C 000:671 JLINK_WriteReg(R10, 0x00000000)  returns 0x00 (0000ms, 0391ms total)
T132C 000:671 JLINK_WriteReg(R11, 0x00000000)  returns 0x00 (0000ms, 0391ms total)
T132C 000:671 JLINK_WriteReg(R12, 0x00000000)  returns 0x00 (0000ms, 0391ms total)
T132C 000:671 JLINK_WriteReg(R13 (SP), 0x20000800)  returns 0x00 (0000ms, 0391ms total)
T132C 000:671 JLINK_WriteReg(R14, 0x20000001)  returns 0x00 (0000ms, 0391ms total)
T132C 000:671 JLINK_WriteReg(R15 (PC), 0x2000006A)  returns 0x00 (0001ms, 0392ms total)
T132C 000:672 JLINK_WriteReg(XPSR, 0x01000000)  returns 0x00 (0000ms, 0392ms total)
T132C 000:672 JLINK_WriteReg(MSP, 0x20000800)  returns 0x00 (0000ms, 0392ms total)
T132C 000:672 JLINK_WriteReg(PSP, 0x20000800)  returns 0x00 (0000ms, 0392ms total)
T132C 000:672 JLINK_WriteReg(CFBP, 0x00000000)  returns 0x00 (0000ms, 0392ms total)
T132C 000:672 JLINK_SetBPEx(Addr = 0x20000000, Type = 0xFFFFFFF2)  returns 0x00000003 (0000ms, 0392ms total)
T132C 000:672 JLINK_Go() -- CPU_ReadMem(4 bytes @ 0xE0001000) (0003ms, 0395ms total)
T132C 000:675 JLINK_IsHalted() -- CPU_ReadMem(2 bytes @ 0x20000000)  returns TRUE (0006ms, 0401ms total)
T132C 000:681 JLINK_ReadReg(R15 (PC))  returns 0x20000000 (0000ms, 0395ms total)
T132C 000:681 JLINK_ClrBPEx(BPHandle = 0x00000003)  returns 0x00 (0000ms, 0395ms total)
T132C 000:681 JLINK_ReadReg(R0)  returns 0x00000000 (0000ms, 0395ms total)
T132C 000:688 JLINK_WriteMem(0x20000000, 0x0164 Bytes, ...) - Data: 00 BE 0A E0 0D 78 2D 06 68 40 08 24 40 00 00 D3 ... -- CPU_WriteMem(356 bytes @ 0x20000000)  returns 0x164 (0004ms, 0399ms total)
T132C 000:692 JLINK_WriteReg(R0, 0x08000000)  returns 0x00 (0000ms, 0399ms total)
T132C 000:692 JLINK_WriteReg(R1, 0x007A1200)  returns 0x00 (0000ms, 0399ms total)
T132C 000:692 JLINK_WriteReg(R2, 0x00000002)  returns 0x00 (0000ms, 0399ms total)
T132C 000:692 JLINK_WriteReg(R3, 0x00000000)  returns 0x00 (0000ms, 0399ms total)
T132C 000:692 JLINK_WriteReg(R4, 0x00000000)  returns 0x00 (0000ms, 0399ms total)
T132C 000:692 JLINK_WriteReg(R5, 0x00000000)  returns 0x00 (0001ms, 0400ms total)
T132C 000:693 JLINK_WriteReg(R6, 0x00000000)  returns 0x00 (0000ms, 0400ms total)
T132C 000:693 JLINK_WriteReg(R7, 0x00000000)  returns 0x00 (0000ms, 0400ms total)
T132C 000:693 JLINK_WriteReg(R8, 0x00000000)  returns 0x00 (0000ms, 0400ms total)
T132C 000:693 JLINK_WriteReg(R9, 0x20000160)  returns 0x00 (0000ms, 0400ms total)
T132C 000:693 JLINK_WriteReg(R10, 0x00000000)  returns 0x00 (0000ms, 0400ms total)
T132C 000:693 JLINK_WriteReg(R11, 0x00000000)  returns 0x00 (0000ms, 0400ms total)
T132C 000:693 JLINK_WriteReg(R12, 0x00000000)  returns 0x00 (0000ms, 0400ms total)
T132C 000:693 JLINK_WriteReg(R13 (SP), 0x20000800)  returns 0x00 (0000ms, 0400ms total)
T132C 000:693 JLINK_WriteReg(R14, 0x20000001)  returns 0x00 (0001ms, 0401ms total)
T132C 000:694 JLINK_WriteReg(R15 (PC), 0x20000038)  returns 0x00 (0000ms, 0401ms total)
T132C 000:694 JLINK_WriteReg(XPSR, 0x01000000)  returns 0x00 (0000ms, 0401ms total)
T132C 000:694 JLINK_WriteReg(MSP, 0x20000800)  returns 0x00 (0000ms, 0401ms total)
T132C 000:694 JLINK_WriteReg(PSP, 0x20000800)  returns 0x00 (0000ms, 0401ms total)
T132C 000:694 JLINK_WriteReg(CFBP, 0x00000000)  returns 0x00 (0000ms, 0401ms total)
T132C 000:694 JLINK_SetBPEx(Addr = 0x20000000, Type = 0xFFFFFFF2) -- CPU_ReadMem(2 bytes @ 0x20000000)  returns 0x00000004 (0001ms, 0402ms total)
T132C 000:695 JLINK_Go() -- CPU_WriteMem(2 bytes @ 0x20000000) -- CPU_ReadMem(4 bytes @ 0xE0001000) (0004ms, 0406ms total)
T132C 000:700 JLINK_IsHalted() -- CPU_ReadMem(2 bytes @ 0x20000000)  returns TRUE (0005ms, 0411ms total)
T132C 000:705 JLINK_ReadReg(R15 (PC))  returns 0x20000000 (0000ms, 0406ms total)
T132C 000:705 JLINK_ClrBPEx(BPHandle = 0x00000004)  returns 0x00 (0000ms, 0406ms total)
T132C 000:705 JLINK_ReadReg(R0)  returns 0x00000000 (0000ms, 0406ms total)
T132C 000:705 JLINK_WriteMem(0x20000164, 0x029C Bytes, ...) - Data: 68 08 00 20 45 01 00 08 79 1A 00 08 7B 1A 00 08 ... -- CPU_WriteMem(668 bytes @ 0x20000164)  returns 0x29C (0007ms, 0413ms total)
T132C 000:712 JLINK_WriteMem(0x20000400, 0x0164 Bytes, ...) - Data: 21 4B 5B 68 03 F0 0C 01 21 B1 04 29 06 D0 08 29 ... -- CPU_WriteMem(356 bytes @ 0x20000400)  returns 0x164 (0004ms, 0417ms total)
T132C 000:716 JLINK_WriteReg(R0, 0x08000000)  returns 0x00 (0000ms, 0417ms total)
T132C 000:716 JLINK_WriteReg(R1, 0x00000400)  returns 0x00 (0000ms, 0417ms total)
T132C 000:716 JLINK_WriteReg(R2, 0x20000164)  returns 0x00 (0000ms, 0417ms total)
T132C 000:716 JLINK_WriteReg(R3, 0x00000000)  returns 0x00 (0000ms, 0417ms total)
T132C 000:716 JLINK_WriteReg(R4, 0x00000000)  returns 0x00 (0000ms, 0417ms total)
T132C 000:716 JLINK_WriteReg(R5, 0x00000000)  returns 0x00 (0000ms, 0417ms total)
T132C 000:716 JLINK_WriteReg(R6, 0x00000000)  returns 0x00 (0000ms, 0417ms total)
T132C 000:716 JLINK_WriteReg(R7, 0x00000000)  returns 0x00 (0000ms, 0417ms total)
T132C 000:716 JLINK_WriteReg(R8, 0x00000000)  returns 0x00 (0001ms, 0418ms total)
T132C 000:717 JLINK_WriteReg(R9, 0x20000160)  returns 0x00 (0000ms, 0418ms total)
T132C 000:717 JLINK_WriteReg(R10, 0x00000000)  returns 0x00 (0000ms, 0418ms total)
T132C 000:717 JLINK_WriteReg(R11, 0x00000000)  returns 0x00 (0000ms, 0418ms total)
T132C 000:717 JLINK_WriteReg(R12, 0x00000000)  returns 0x00 (0000ms, 0418ms total)
T132C 000:717 JLINK_WriteReg(R13 (SP), 0x20000800)  returns 0x00 (0000ms, 0418ms total)
T132C 000:717 JLINK_WriteReg(R14, 0x20000001)  returns 0x00 (0000ms, 0418ms total)
T132C 000:717 JLINK_WriteReg(R15 (PC), 0x200000F4)  returns 0x00 (0000ms, 0418ms total)
T132C 000:717 JLINK_WriteReg(XPSR, 0x01000000)  returns 0x00 (0000ms, 0418ms total)
T132C 000:718 JLINK_WriteReg(MSP, 0x20000800)  returns 0x00 (0000ms, 0419ms total)
T132C 000:718 JLINK_WriteReg(PSP, 0x20000800)  returns 0x00 (0000ms, 0419ms total)
T132C 000:718 JLINK_WriteReg(CFBP, 0x00000000)  returns 0x00 (0000ms, 0419ms total)
T132C 000:718 JLINK_SetBPEx(Addr = 0x20000000, Type = 0xFFFFFFF2)  returns 0x00000005 (0000ms, 0419ms total)
T132C 000:718 JLINK_Go() -- CPU_ReadMem(4 bytes @ 0xE0001000) (0003ms, 0422ms total)
T132C 000:721 JLINK_IsHalted()  returns FALSE (0001ms, 0423ms total)
T132C 000:738 JLINK_IsHalted()  returns FALSE (0001ms, 0423ms total)
T132C 000:740 JLINK_IsHalted()  returns FALSE (0001ms, 0423ms total)
T132C 000:742 JLINK_IsHalted()  returns FALSE (0001ms, 0423ms total)
T132C 000:744 JLINK_IsHalted()  returns FALSE (0001ms, 0423ms total)
T132C 000:746 JLINK_IsHalted()  returns FALSE (0000ms, 0422ms total)
T132C 000:748 JLINK_IsHalted()  returns FALSE (0000ms, 0422ms total)
T132C 000:750 JLINK_IsHalted()  returns FALSE (0000ms, 0422ms total)
T132C 000:752 JLINK_IsHalted() -- CPU_ReadMem(2 bytes @ 0x20000000)  returns TRUE (0005ms, 0427ms total)
T132C 000:757 JLINK_ReadReg(R15 (PC))  returns 0x20000000 (0000ms, 0422ms total)
T132C 000:757 JLINK_ClrBPEx(BPHandle = 0x00000005)  returns 0x00 (0000ms, 0422ms total)
T132C 000:757 JLINK_ReadReg(R0)  returns 0x00000000 (0000ms, 0422ms total)
T132C 000:759 JLINK_WriteMem(0x20000164, 0x029C Bytes, ...) - Data: 09 69 21 F0 04 01 4F F0 E0 22 11 61 70 47 00 00 ... -- CPU_WriteMem(668 bytes @ 0x20000164)  returns 0x29C (0006ms, 0428ms total)
T132C 000:765 JLINK_WriteMem(0x20000400, 0x0164 Bytes, ...) - Data: 36 4E F1 69 01 E0 35 4E 71 68 C0 F3 03 45 83 B2 ... -- CPU_WriteMem(356 bytes @ 0x20000400)  returns 0x164 (0004ms, 0432ms total)
T132C 000:769 JLINK_WriteReg(R0, 0x08000400)  returns 0x00 (0000ms, 0432ms total)
T132C 000:769 JLINK_WriteReg(R1, 0x00000400)  returns 0x00 (0000ms, 0432ms total)
T132C 000:769 JLINK_WriteReg(R2, 0x20000164)  returns 0x00 (0000ms, 0432ms total)
T132C 000:769 JLINK_WriteReg(R3, 0x00000000)  returns 0x00 (0000ms, 0432ms total)
T132C 000:769 JLINK_WriteReg(R4, 0x00000000)  returns 0x00 (0000ms, 0432ms total)
T132C 000:769 JLINK_WriteReg(R5, 0x00000000)  returns 0x00 (0001ms, 0433ms total)
T132C 000:770 JLINK_WriteReg(R6, 0x00000000)  returns 0x00 (0000ms, 0433ms total)
T132C 000:770 JLINK_WriteReg(R7, 0x00000000)  returns 0x00 (0000ms, 0433ms total)
T132C 000:770 JLINK_WriteReg(R8, 0x00000000)  returns 0x00 (0000ms, 0433ms total)
T132C 000:770 JLINK_WriteReg(R9, 0x20000160)  returns 0x00 (0000ms, 0433ms total)
T132C 000:770 JLINK_WriteReg(R10, 0x00000000)  returns 0x00 (0000ms, 0433ms total)
T132C 000:770 JLINK_WriteReg(R11, 0x00000000)  returns 0x00 (0000ms, 0433ms total)
T132C 000:770 JLINK_WriteReg(R12, 0x00000000)  returns 0x00 (0000ms, 0433ms total)
T132C 000:770 JLINK_WriteReg(R13 (SP), 0x20000800)  returns 0x00 (0000ms, 0433ms total)
T132C 000:770 JLINK_WriteReg(R14, 0x20000001)  returns 0x00 (0001ms, 0434ms total)
T132C 000:771 JLINK_WriteReg(R15 (PC), 0x200000F4)  returns 0x00 (0000ms, 0434ms total)
T132C 000:771 JLINK_WriteReg(XPSR, 0x01000000)  returns 0x00 (0000ms, 0434ms total)
T132C 000:771 JLINK_WriteReg(MSP, 0x20000800)  returns 0x00 (0000ms, 0434ms total)
T132C 000:771 JLINK_WriteReg(PSP, 0x20000800)  returns 0x00 (0000ms, 0434ms total)
T132C 000:771 JLINK_WriteReg(CFBP, 0x00000000)  returns 0x00 (0000ms, 0434ms total)
T132C 000:771 JLINK_SetBPEx(Addr = 0x20000000, Type = 0xFFFFFFF2)  returns 0x00000006 (0000ms, 0434ms total)
T132C 000:771 JLINK_Go() -- CPU_ReadMem(4 bytes @ 0xE0001000) (0004ms, 0438ms total)
T132C 000:775 JLINK_IsHalted()  returns FALSE (0001ms, 0439ms total)
T132C 000:782 JLINK_IsHalted()  returns FALSE (0001ms, 0439ms total)
T132C 000:784 JLINK_IsHalted()  returns FALSE (0001ms, 0439ms total)
T132C 000:786 JLINK_IsHalted()  returns FALSE (0001ms, 0439ms total)
T132C 000:788 JLINK_IsHalted()  returns FALSE (0001ms, 0439ms total)
T132C 000:790 JLINK_IsHalted()  returns FALSE (0000ms, 0438ms total)
T132C 000:792 JLINK_IsHalted()  returns FALSE (0000ms, 0438ms total)
T132C 000:794 JLINK_IsHalted()  returns FALSE (0000ms, 0438ms total)
T132C 000:795 JLINK_IsHalted()  returns FALSE (0000ms, 0438ms total)
T132C 000:796 JLINK_IsHalted()  returns FALSE (0000ms, 0438ms total)
T132C 000:798 JLINK_IsHalted()  returns FALSE (0000ms, 0438ms total)
T132C 000:800 JLINK_IsHalted()  returns FALSE (0000ms, 0438ms total)
T132C 000:802 JLINK_IsHalted()  returns FALSE (0000ms, 0438ms total)
T132C 000:804 JLINK_IsHalted()  returns FALSE (0000ms, 0438ms total)
T132C 000:806 JLINK_IsHalted() -- CPU_ReadMem(2 bytes @ 0x20000000)  returns TRUE (0005ms, 0443ms total)
T132C 000:811 JLINK_ReadReg(R15 (PC))  returns 0x20000000 (0000ms, 0438ms total)
T132C 000:811 JLINK_ClrBPEx(BPHandle = 0x00000006)  returns 0x00 (0000ms, 0438ms total)
T132C 000:811 JLINK_ReadReg(R0)  returns 0x00000000 (0000ms, 0438ms total)
T132C 000:812 JLINK_WriteMem(0x20000164, 0x029C Bytes, ...) - Data: 00 BF 00 BF 70 47 10 B5 01 46 00 22 00 23 00 20 ... -- CPU_WriteMem(668 bytes @ 0x20000164)  returns 0x29C (0006ms, 0444ms total)
T132C 000:818 JLINK_WriteMem(0x20000400, 0x0164 Bytes, ...) - Data: 04 E0 18 4A D2 68 82 43 16 4B DA 60 70 47 29 B1 ... -- CPU_WriteMem(356 bytes @ 0x20000400)  returns 0x164 (0004ms, 0448ms total)
T132C 000:822 JLINK_WriteReg(R0, 0x08000800)  returns 0x00 (0000ms, 0448ms total)
T132C 000:822 JLINK_WriteReg(R1, 0x00000400)  returns 0x00 (0000ms, 0448ms total)
T132C 000:822 JLINK_WriteReg(R2, 0x20000164)  returns 0x00 (0000ms, 0448ms total)
T132C 000:822 JLINK_WriteReg(R3, 0x00000000)  returns 0x00 (0000ms, 0448ms total)
T132C 000:822 JLINK_WriteReg(R4, 0x00000000)  returns 0x00 (0000ms, 0448ms total)
T132C 000:822 JLINK_WriteReg(R5, 0x00000000)  returns 0x00 (0001ms, 0449ms total)
T132C 000:823 JLINK_WriteReg(R6, 0x00000000)  returns 0x00 (0000ms, 0449ms total)
T132C 000:823 JLINK_WriteReg(R7, 0x00000000)  returns 0x00 (0000ms, 0449ms total)
T132C 000:823 JLINK_WriteReg(R8, 0x00000000)  returns 0x00 (0000ms, 0449ms total)
T132C 000:823 JLINK_WriteReg(R9, 0x20000160)  returns 0x00 (0000ms, 0449ms total)
T132C 000:823 JLINK_WriteReg(R10, 0x00000000)  returns 0x00 (0000ms, 0449ms total)
T132C 000:823 JLINK_WriteReg(R11, 0x00000000)  returns 0x00 (0000ms, 0449ms total)
T132C 000:823 JLINK_WriteReg(R12, 0x00000000)  returns 0x00 (0000ms, 0449ms total)
T132C 000:823 JLINK_WriteReg(R13 (SP), 0x20000800)  returns 0x00 (0000ms, 0449ms total)
T132C 000:823 JLINK_WriteReg(R14, 0x20000001)  returns 0x00 (0001ms, 0450ms total)
T132C 000:824 JLINK_WriteReg(R15 (PC), 0x200000F4)  returns 0x00 (0000ms, 0450ms total)
T132C 000:824 JLINK_WriteReg(XPSR, 0x01000000)  returns 0x00 (0000ms, 0450ms total)
T132C 000:824 JLINK_WriteReg(MSP, 0x20000800)  returns 0x00 (0000ms, 0450ms total)
T132C 000:824 JLINK_WriteReg(PSP, 0x20000800)  returns 0x00 (0000ms, 0450ms total)
T132C 000:824 JLINK_WriteReg(CFBP, 0x00000000)  returns 0x00 (0000ms, 0450ms total)
T132C 000:824 JLINK_SetBPEx(Addr = 0x20000000, Type = 0xFFFFFFF2)  returns 0x00000007 (0000ms, 0450ms total)
T132C 000:824 JLINK_Go() -- CPU_ReadMem(4 bytes @ 0xE0001000) (0004ms, 0454ms total)
T132C 000:828 JLINK_IsHalted()  returns FALSE (0001ms, 0455ms total)
T132C 000:834 JLINK_IsHalted()  returns FALSE (0001ms, 0455ms total)
T132C 000:836 JLINK_IsHalted()  returns FALSE (0001ms, 0455ms total)
T132C 000:838 JLINK_IsHalted()  returns FALSE (0000ms, 0454ms total)
T132C 000:840 JLINK_IsHalted()  returns FALSE (0000ms, 0454ms total)
T132C 000:842 JLINK_IsHalted()  returns FALSE (0000ms, 0454ms total)
T132C 000:843 JLINK_IsHalted()  returns FALSE (0000ms, 0454ms total)
T132C 000:845 JLINK_IsHalted()  returns FALSE (0000ms, 0454ms total)
T132C 000:847 JLINK_IsHalted()  returns FALSE (0000ms, 0455ms total)
T132C 000:849 JLINK_IsHalted()  returns FALSE (0000ms, 0455ms total)
T132C 000:850 JLINK_IsHalted()  returns FALSE (0000ms, 0455ms total)
T132C 000:851 JLINK_IsHalted()  returns FALSE (0000ms, 0455ms total)
T132C 000:853 JLINK_IsHalted()  returns FALSE (0001ms, 0456ms total)
T132C 000:858 JLINK_IsHalted()  returns FALSE (0001ms, 0456ms total)
T132C 000:860 JLINK_IsHalted() -- CPU_ReadMem(2 bytes @ 0x20000000)  returns TRUE (0005ms, 0460ms total)
T132C 000:865 JLINK_ReadReg(R15 (PC))  returns 0x20000000 (0000ms, 0455ms total)
T132C 000:865 JLINK_ClrBPEx(BPHandle = 0x00000007)  returns 0x00 (0000ms, 0455ms total)
T132C 000:865 JLINK_ReadReg(R0)  returns 0x00000000 (0000ms, 0455ms total)
T132C 000:866 JLINK_WriteMem(0x20000164, 0x029C Bytes, ...) - Data: C0 FE DD F8 00 A0 E0 88 B0 F5 00 7F 0A D1 4F EA ... -- CPU_WriteMem(668 bytes @ 0x20000164)  returns 0x29C (0006ms, 0461ms total)
T132C 000:872 JLINK_WriteMem(0x20000400, 0x0164 Bytes, ...) - Data: E5 48 84 42 08 D1 01 21 08 05 FF F7 00 FE 00 21 ... -- CPU_WriteMem(356 bytes @ 0x20000400)  returns 0x164 (0004ms, 0465ms total)
T132C 000:876 JLINK_WriteReg(R0, 0x08000C00)  returns 0x00 (0000ms, 0465ms total)
T132C 000:876 JLINK_WriteReg(R1, 0x00000400)  returns 0x00 (0000ms, 0465ms total)
T132C 000:876 JLINK_WriteReg(R2, 0x20000164)  returns 0x00 (0000ms, 0465ms total)
T132C 000:876 JLINK_WriteReg(R3, 0x00000000)  returns 0x00 (0000ms, 0465ms total)
T132C 000:876 JLINK_WriteReg(R4, 0x00000000)  returns 0x00 (0001ms, 0466ms total)
T132C 000:877 JLINK_WriteReg(R5, 0x00000000)  returns 0x00 (0000ms, 0466ms total)
T132C 000:877 JLINK_WriteReg(R6, 0x00000000)  returns 0x00 (0000ms, 0466ms total)
T132C 000:877 JLINK_WriteReg(R7, 0x00000000)  returns 0x00 (0000ms, 0466ms total)
T132C 000:877 JLINK_WriteReg(R8, 0x00000000)  returns 0x00 (0000ms, 0466ms total)
T132C 000:877 JLINK_WriteReg(R9, 0x20000160)  returns 0x00 (0000ms, 0466ms total)
T132C 000:877 JLINK_WriteReg(R10, 0x00000000)  returns 0x00 (0000ms, 0466ms total)
T132C 000:877 JLINK_WriteReg(R11, 0x00000000)  returns 0x00 (0000ms, 0466ms total)
T132C 000:877 JLINK_WriteReg(R12, 0x00000000)  returns 0x00 (0000ms, 0466ms total)
T132C 000:877 JLINK_WriteReg(R13 (SP), 0x20000800)  returns 0x00 (0001ms, 0467ms total)
T132C 000:878 JLINK_WriteReg(R14, 0x20000001)  returns 0x00 (0000ms, 0467ms total)
T132C 000:878 JLINK_WriteReg(R15 (PC), 0x200000F4)  returns 0x00 (0000ms, 0467ms total)
T132C 000:878 JLINK_WriteReg(XPSR, 0x01000000)  returns 0x00 (0000ms, 0467ms total)
T132C 000:878 JLINK_WriteReg(MSP, 0x20000800)  returns 0x00 (0000ms, 0467ms total)
T132C 000:878 JLINK_WriteReg(PSP, 0x20000800)  returns 0x00 (0000ms, 0467ms total)
T132C 000:878 JLINK_WriteReg(CFBP, 0x00000000)  returns 0x00 (0000ms, 0467ms total)
T132C 000:878 JLINK_SetBPEx(Addr = 0x20000000, Type = 0xFFFFFFF2)  returns 0x00000008 (0000ms, 0467ms total)
T132C 000:878 JLINK_Go() -- CPU_ReadMem(4 bytes @ 0xE0001000) (0004ms, 0471ms total)
T132C 000:882 JLINK_IsHalted()  returns FALSE (0001ms, 0472ms total)
T132C 000:884 JLINK_IsHalted()  returns FALSE (0000ms, 0471ms total)
T132C 000:891 JLINK_IsHalted()  returns FALSE (0001ms, 0472ms total)
T132C 000:893 JLINK_IsHalted()  returns FALSE (0001ms, 0472ms total)
T132C 000:895 JLINK_IsHalted()  returns FALSE (0000ms, 0471ms total)
T132C 000:897 JLINK_IsHalted()  returns FALSE (0001ms, 0472ms total)
T132C 000:899 JLINK_IsHalted()  returns FALSE (0001ms, 0473ms total)
T132C 000:907 JLINK_IsHalted()  returns FALSE (0000ms, 0472ms total)
T132C 000:909 JLINK_IsHalted()  returns FALSE (0001ms, 0473ms total)
T132C 000:911 JLINK_IsHalted()  returns FALSE (0001ms, 0473ms total)
T132C 000:913 JLINK_IsHalted() -- CPU_ReadMem(2 bytes @ 0x20000000)  returns TRUE (0005ms, 0477ms total)
T132C 000:918 JLINK_ReadReg(R15 (PC))  returns 0x20000000 (0000ms, 0472ms total)
T132C 000:918 JLINK_ClrBPEx(BPHandle = 0x00000008)  returns 0x00 (0001ms, 0473ms total)
T132C 000:919 JLINK_ReadReg(R0)  returns 0x00000000 (0000ms, 0473ms total)
T132C 000:919 JLINK_WriteMem(0x20000164, 0x029C Bytes, ...) - Data: 42 14 01 F0 1F 06 01 27 07 FA 06 F5 01 2C 01 D1 ... -- CPU_WriteMem(668 bytes @ 0x20000164)  returns 0x29C (0006ms, 0479ms total)
T132C 000:925 JLINK_WriteMem(0x20000400, 0x0164 Bytes, ...) - Data: FE E7 00 00 A0 86 01 00 48 65 6C 6C 6F 20 57 6F ... -- CPU_WriteMem(356 bytes @ 0x20000400)  returns 0x164 (0004ms, 0483ms total)
T132C 000:929 JLINK_WriteReg(R0, 0x08001000)  returns 0x00 (0000ms, 0483ms total)
T132C 000:929 JLINK_WriteReg(R1, 0x00000400)  returns 0x00 (0000ms, 0483ms total)
T132C 000:930 JLINK_WriteReg(R2, 0x20000164)  returns 0x00 (0000ms, 0484ms total)
T132C 000:930 JLINK_WriteReg(R3, 0x00000000)  returns 0x00 (0000ms, 0484ms total)
T132C 000:930 JLINK_WriteReg(R4, 0x00000000)  returns 0x00 (0000ms, 0484ms total)
T132C 000:930 JLINK_WriteReg(R5, 0x00000000)  returns 0x00 (0000ms, 0484ms total)
T132C 000:930 JLINK_WriteReg(R6, 0x00000000)  returns 0x00 (0000ms, 0484ms total)
T132C 000:930 JLINK_WriteReg(R7, 0x00000000)  returns 0x00 (0000ms, 0484ms total)
T132C 000:930 JLINK_WriteReg(R8, 0x00000000)  returns 0x00 (0000ms, 0484ms total)
T132C 000:930 JLINK_WriteReg(R9, 0x20000160)  returns 0x00 (0000ms, 0484ms total)
T132C 000:930 JLINK_WriteReg(R10, 0x00000000)  returns 0x00 (0000ms, 0484ms total)
T132C 000:930 JLINK_WriteReg(R11, 0x00000000)  returns 0x00 (0001ms, 0485ms total)
T132C 000:931 JLINK_WriteReg(R12, 0x00000000)  returns 0x00 (0000ms, 0485ms total)
T132C 000:931 JLINK_WriteReg(R13 (SP), 0x20000800)  returns 0x00 (0000ms, 0485ms total)
T132C 000:931 JLINK_WriteReg(R14, 0x20000001)  returns 0x00 (0000ms, 0485ms total)
T132C 000:931 JLINK_WriteReg(R15 (PC), 0x200000F4)  returns 0x00 (0000ms, 0485ms total)
T132C 000:931 JLINK_WriteReg(XPSR, 0x01000000)  returns 0x00 (0000ms, 0485ms total)
T132C 000:931 JLINK_WriteReg(MSP, 0x20000800)  returns 0x00 (0000ms, 0485ms total)
T132C 000:931 JLINK_WriteReg(PSP, 0x20000800)  returns 0x00 (0000ms, 0485ms total)
T132C 000:931 JLINK_WriteReg(CFBP, 0x00000000)  returns 0x00 (0001ms, 0486ms total)
T132C 000:932 JLINK_SetBPEx(Addr = 0x20000000, Type = 0xFFFFFFF2)  returns 0x00000009 (0000ms, 0486ms total)
T132C 000:932 JLINK_Go() -- CPU_ReadMem(4 bytes @ 0xE0001000) (0004ms, 0490ms total)
T132C 000:936 JLINK_IsHalted()  returns FALSE (0001ms, 0491ms total)
T132C 000:941 JLINK_IsHalted()  returns FALSE (0000ms, 0490ms total)
T132C 000:943 JLINK_IsHalted()  returns FALSE (0000ms, 0490ms total)
T132C 000:945 JLINK_IsHalted()  returns FALSE (0001ms, 0491ms total)
T132C 000:947 JLINK_IsHalted()  returns FALSE (0001ms, 0491ms total)
T132C 000:949 JLINK_IsHalted()  returns FALSE (0001ms, 0491ms total)
T132C 000:951 JLINK_IsHalted()  returns FALSE (0001ms, 0491ms total)
T132C 000:953 JLINK_IsHalted()  returns FALSE (0001ms, 0491ms total)
T132C 000:955 JLINK_IsHalted()  returns FALSE (0001ms, 0491ms total)
T132C 000:957 JLINK_IsHalted()  returns FALSE (0000ms, 0490ms total)
T132C 000:959 JLINK_IsHalted()  returns FALSE (0001ms, 0491ms total)
T132C 000:961 JLINK_IsHalted()  returns FALSE (0001ms, 0491ms total)
T132C 000:963 JLINK_IsHalted()  returns FALSE (0000ms, 0490ms total)
T132C 000:965 JLINK_IsHalted()  returns FALSE (0000ms, 0490ms total)
T132C 000:966 JLINK_IsHalted()  returns FALSE (0000ms, 0490ms total)
T132C 000:967 JLINK_IsHalted() -- CPU_ReadMem(2 bytes @ 0x20000000)  returns TRUE (0005ms, 0495ms total)
T132C 000:972 JLINK_ReadReg(R15 (PC))  returns 0x20000000 (0000ms, 0490ms total)
T132C 000:972 JLINK_ClrBPEx(BPHandle = 0x00000009)  returns 0x00 (0000ms, 0490ms total)
T132C 000:972 JLINK_ReadReg(R0)  returns 0x00000000 (0000ms, 0490ms total)
T132C 000:973 JLINK_WriteMem(0x20000164, 0x029C Bytes, ...) - Data: 00 BF 80 21 30 46 FF F7 BD FE 00 28 F9 D0 64 1C ... -- CPU_WriteMem(668 bytes @ 0x20000164)  returns 0x29C (0006ms, 0496ms total)
T132C 000:979 JLINK_WriteMem(0x20000400, 0x0164 Bytes, ...) - Data: 08 A8 01 F0 59 FF 43 46 02 46 08 A9 05 90 00 20 ... -- CPU_WriteMem(356 bytes @ 0x20000400)  returns 0x164 (0004ms, 0500ms total)
T132C 000:983 JLINK_WriteReg(R0, 0x08001400)  returns 0x00 (0000ms, 0500ms total)
T132C 000:983 JLINK_WriteReg(R1, 0x00000400)  returns 0x00 (0000ms, 0500ms total)
T132C 000:983 JLINK_WriteReg(R2, 0x20000164)  returns 0x00 (0000ms, 0500ms total)
T132C 000:983 JLINK_WriteReg(R3, 0x00000000)  returns 0x00 (0000ms, 0500ms total)
T132C 000:983 JLINK_WriteReg(R4, 0x00000000)  returns 0x00 (0000ms, 0500ms total)
T132C 000:983 JLINK_WriteReg(R5, 0x00000000)  returns 0x00 (0000ms, 0500ms total)
T132C 000:983 JLINK_WriteReg(R6, 0x00000000)  returns 0x00 (0000ms, 0500ms total)
T132C 000:983 JLINK_WriteReg(R7, 0x00000000)  returns 0x00 (0000ms, 0500ms total)
T132C 000:983 JLINK_WriteReg(R8, 0x00000000)  returns 0x00 (0001ms, 0501ms total)
T132C 000:984 JLINK_WriteReg(R9, 0x20000160)  returns 0x00 (0000ms, 0501ms total)
T132C 000:984 JLINK_WriteReg(R10, 0x00000000)  returns 0x00 (0000ms, 0501ms total)
T132C 000:984 JLINK_WriteReg(R11, 0x00000000)  returns 0x00 (0000ms, 0501ms total)
T132C 000:984 JLINK_WriteReg(R12, 0x00000000)  returns 0x00 (0000ms, 0501ms total)
T132C 000:984 JLINK_WriteReg(R13 (SP), 0x20000800)  returns 0x00 (0000ms, 0501ms total)
T132C 000:984 JLINK_WriteReg(R14, 0x20000001)  returns 0x00 (0000ms, 0501ms total)
T132C 000:984 JLINK_WriteReg(R15 (PC), 0x200000F4)  returns 0x00 (0000ms, 0501ms total)
T132C 000:984 JLINK_WriteReg(XPSR, 0x01000000)  returns 0x00 (0000ms, 0501ms total)
T132C 000:984 JLINK_WriteReg(MSP, 0x20000800)  returns 0x00 (0000ms, 0501ms total)
T132C 000:985 JLINK_WriteReg(PSP, 0x20000800)  returns 0x00 (0000ms, 0502ms total)
T132C 000:985 JLINK_WriteReg(CFBP, 0x00000000)  returns 0x00 (0000ms, 0502ms total)
T132C 000:985 JLINK_SetBPEx(Addr = 0x20000000, Type = 0xFFFFFFF2)  returns 0x0000000A (0000ms, 0502ms total)
T132C 000:985 JLINK_Go() -- CPU_ReadMem(4 bytes @ 0xE0001000) (0003ms, 0505ms total)
T132C 000:988 JLINK_IsHalted()  returns FALSE (0001ms, 0506ms total)
T132C 000:992 JLINK_IsHalted()  returns FALSE (0001ms, 0506ms total)
T132C 000:994 JLINK_IsHalted()  returns FALSE (0001ms, 0506ms total)
T132C 000:996 JLINK_IsHalted()  returns FALSE (0000ms, 0505ms total)
T132C 000:997 JLINK_IsHalted()  returns FALSE (0001ms, 0506ms total)
T132C 000:999 JLINK_IsHalted()  returns FALSE (0000ms, 0505ms total)
T132C 001:000 JLINK_IsHalted()  returns FALSE (0000ms, 0505ms total)
T132C 001:001 JLINK_IsHalted()  returns FALSE (0001ms, 0506ms total)
T132C 001:003 JLINK_IsHalted()  returns FALSE (0000ms, 0505ms total)
T132C 001:004 JLINK_IsHalted()  returns FALSE (0000ms, 0505ms total)
T132C 001:005 JLINK_IsHalted()  returns FALSE (0001ms, 0506ms total)
T132C 001:007 JLINK_IsHalted()  returns FALSE (0001ms, 0506ms total)
T132C 001:009 JLINK_IsHalted()  returns FALSE (0000ms, 0505ms total)
T132C 001:010 JLINK_IsHalted()  returns FALSE (0001ms, 0506ms total)
T132C 001:012 JLINK_IsHalted()  returns FALSE (0000ms, 0505ms total)
T132C 001:013 JLINK_IsHalted()  returns FALSE (0000ms, 0505ms total)
T132C 001:014 JLINK_IsHalted()  returns FALSE (0000ms, 0505ms total)
T132C 001:015 JLINK_IsHalted()  returns FALSE (0001ms, 0506ms total)
T132C 001:017 JLINK_IsHalted()  returns FALSE (0000ms, 0505ms total)
T132C 001:018 JLINK_IsHalted()  returns FALSE (0001ms, 0506ms total)
T132C 001:020 JLINK_IsHalted() -- CPU_ReadMem(2 bytes @ 0x20000000)  returns TRUE (0005ms, 0510ms total)
T132C 001:025 JLINK_ReadReg(R15 (PC))  returns 0x20000000 (0000ms, 0505ms total)
T132C 001:025 JLINK_ClrBPEx(BPHandle = 0x0000000A)  returns 0x00 (0000ms, 0505ms total)
T132C 001:025 JLINK_ReadReg(R0)  returns 0x00000000 (0000ms, 0505ms total)
T132C 001:026 JLINK_WriteMem(0x20000164, 0x029C Bytes, ...) - Data: 20 12 0C 90 E0 B2 0B 90 E0 1D C0 F3 07 20 0A 90 ... -- CPU_WriteMem(668 bytes @ 0x20000164)  returns 0x29C (0006ms, 0511ms total)
T132C 001:032 JLINK_WriteMem(0x20000400, 0x0164 Bytes, ...) - Data: 25 51 1B 48 FF F7 86 FB D8 B1 19 48 FF F7 02 FB ... -- CPU_WriteMem(356 bytes @ 0x20000400)  returns 0x164 (0004ms, 0515ms total)
T132C 001:036 JLINK_WriteReg(R0, 0x08001800)  returns 0x00 (0000ms, 0515ms total)
T132C 001:036 JLINK_WriteReg(R1, 0x00000400)  returns 0x00 (0000ms, 0515ms total)
T132C 001:036 JLINK_WriteReg(R2, 0x20000164)  returns 0x00 (0000ms, 0515ms total)
T132C 001:036 JLINK_WriteReg(R3, 0x00000000)  returns 0x00 (0000ms, 0515ms total)
T132C 001:036 JLINK_WriteReg(R4, 0x00000000)  returns 0x00 (0000ms, 0515ms total)
T132C 001:036 JLINK_WriteReg(R5, 0x00000000)  returns 0x00 (0000ms, 0515ms total)
T132C 001:036 JLINK_WriteReg(R6, 0x00000000)  returns 0x00 (0001ms, 0516ms total)
T132C 001:037 JLINK_WriteReg(R7, 0x00000000)  returns 0x00 (0000ms, 0516ms total)
T132C 001:037 JLINK_WriteReg(R8, 0x00000000)  returns 0x00 (0000ms, 0516ms total)
T132C 001:037 JLINK_WriteReg(R9, 0x20000160)  returns 0x00 (0000ms, 0516ms total)
T132C 001:037 JLINK_WriteReg(R10, 0x00000000)  returns 0x00 (0000ms, 0516ms total)
T132C 001:037 JLINK_WriteReg(R11, 0x00000000)  returns 0x00 (0000ms, 0516ms total)
T132C 001:037 JLINK_WriteReg(R12, 0x00000000)  returns 0x00 (0000ms, 0516ms total)
T132C 001:037 JLINK_WriteReg(R13 (SP), 0x20000800)  returns 0x00 (0000ms, 0516ms total)
T132C 001:037 JLINK_WriteReg(R14, 0x20000001)  returns 0x00 (0000ms, 0516ms total)
T132C 001:037 JLINK_WriteReg(R15 (PC), 0x200000F4)  returns 0x00 (0000ms, 0516ms total)
T132C 001:037 JLINK_WriteReg(XPSR, 0x01000000)  returns 0x00 (0001ms, 0517ms total)
T132C 001:038 JLINK_WriteReg(MSP, 0x20000800)  returns 0x00 (0000ms, 0517ms total)
T132C 001:038 JLINK_WriteReg(PSP, 0x20000800)  returns 0x00 (0000ms, 0517ms total)
T132C 001:038 JLINK_WriteReg(CFBP, 0x00000000)  returns 0x00 (0000ms, 0517ms total)
T132C 001:038 JLINK_SetBPEx(Addr = 0x20000000, Type = 0xFFFFFFF2)  returns 0x0000000B (0000ms, 0517ms total)
T132C 001:038 JLINK_Go() -- CPU_ReadMem(4 bytes @ 0xE0001000) (0006ms, 0523ms total)
T132C 001:044 JLINK_IsHalted()  returns FALSE (0001ms, 0524ms total)
T132C 001:049 JLINK_IsHalted()  returns FALSE (0001ms, 0524ms total)
T132C 001:051 JLINK_IsHalted()  returns FALSE (0001ms, 0524ms total)
T132C 001:053 JLINK_IsHalted()  returns FALSE (0001ms, 0524ms total)
T132C 001:055 JLINK_IsHalted()  returns FALSE (0001ms, 0524ms total)
T132C 001:057 JLINK_IsHalted()  returns FALSE (0000ms, 0523ms total)
T132C 001:058 JLINK_IsHalted()  returns FALSE (0000ms, 0523ms total)
T132C 001:059 JLINK_IsHalted()  returns FALSE (0000ms, 0523ms total)
T132C 001:060 JLINK_IsHalted()  returns FALSE (0000ms, 0523ms total)
T132C 001:061 JLINK_IsHalted()  returns FALSE (0000ms, 0523ms total)
T132C 001:062 JLINK_IsHalted()  returns FALSE (0000ms, 0523ms total)
T132C 001:063 JLINK_IsHalted()  returns FALSE (0000ms, 0523ms total)
T132C 001:064 JLINK_IsHalted()  returns FALSE (0000ms, 0523ms total)
T132C 001:065 JLINK_IsHalted()  returns FALSE (0000ms, 0523ms total)
T132C 001:066 JLINK_IsHalted()  returns FALSE (0000ms, 0523ms total)
T132C 001:067 JLINK_IsHalted()  returns FALSE (0000ms, 0523ms total)
T132C 001:068 JLINK_IsHalted()  returns FALSE (0000ms, 0523ms total)
T132C 001:069 JLINK_IsHalted()  returns FALSE (0000ms, 0523ms total)
T132C 001:070 JLINK_IsHalted()  returns FALSE (0000ms, 0523ms total)
T132C 001:071 JLINK_IsHalted()  returns FALSE (0000ms, 0523ms total)
T132C 001:072 JLINK_IsHalted()  returns FALSE (0000ms, 0523ms total)
T132C 001:074 JLINK_IsHalted()  returns FALSE (0000ms, 0523ms total)
T132C 001:100 JLINK_IsHalted() -- CPU_ReadMem(2 bytes @ 0x20000000)  returns TRUE (0007ms, 0530ms total)
T132C 001:107 JLINK_ReadReg(R15 (PC))  returns 0x20000000 (0000ms, 0523ms total)
T132C 001:107 JLINK_ClrBPEx(BPHandle = 0x0000000B)  returns 0x00 (0000ms, 0523ms total)
T132C 001:107 JLINK_ReadReg(R0)  returns 0x00000000 (0000ms, 0523ms total)
T132C 001:109 JLINK_WriteMem(0x20000164, 0x029C Bytes, ...) - Data: 01 21 E0 48 FF F7 E3 F9 05 B0 00 BD 08 B5 01 21 ... -- CPU_WriteMem(668 bytes @ 0x20000164)  returns 0x29C (0006ms, 0529ms total)
T132C 001:115 JLINK_WriteMem(0x20000400, 0x0164 Bytes, ...) - Data: 04 46 0D 46 16 46 FC B1 2B 46 01 22 70 A1 1E A8 ... -- CPU_WriteMem(356 bytes @ 0x20000400)  returns 0x164 (0004ms, 0533ms total)
T132C 001:119 JLINK_WriteReg(R0, 0x08001C00)  returns 0x00 (0000ms, 0533ms total)
T132C 001:119 JLINK_WriteReg(R1, 0x00000400)  returns 0x00 (0000ms, 0533ms total)
T132C 001:119 JLINK_WriteReg(R2, 0x20000164)  returns 0x00 (0000ms, 0533ms total)
T132C 001:119 JLINK_WriteReg(R3, 0x00000000)  returns 0x00 (0000ms, 0533ms total)
T132C 001:119 JLINK_WriteReg(R4, 0x00000000)  returns 0x00 (0000ms, 0533ms total)
T132C 001:119 JLINK_WriteReg(R5, 0x00000000)  returns 0x00 (0000ms, 0533ms total)
T132C 001:119 JLINK_WriteReg(R6, 0x00000000)  returns 0x00 (0000ms, 0533ms total)
T132C 001:119 JLINK_WriteReg(R7, 0x00000000)  returns 0x00 (0000ms, 0533ms total)
T132C 001:119 JLINK_WriteReg(R8, 0x00000000)  returns 0x00 (0000ms, 0533ms total)
T132C 001:119 JLINK_WriteReg(R9, 0x20000160)  returns 0x00 (0000ms, 0533ms total)
T132C 001:119 JLINK_WriteReg(R10, 0x00000000)  returns 0x00 (0000ms, 0533ms total)
T132C 001:119 JLINK_WriteReg(R11, 0x00000000)  returns 0x00 (0000ms, 0533ms total)
T132C 001:119 JLINK_WriteReg(R12, 0x00000000)  returns 0x00 (0000ms, 0533ms total)
T132C 001:119 JLINK_WriteReg(R13 (SP), 0x20000800)  returns 0x00 (0000ms, 0533ms total)
T132C 001:119 JLINK_WriteReg(R14, 0x20000001)  returns 0x00 (0001ms, 0534ms total)
T132C 001:120 JLINK_WriteReg(R15 (PC), 0x200000F4)  returns 0x00 (0000ms, 0534ms total)
T132C 001:120 JLINK_WriteReg(XPSR, 0x01000000)  returns 0x00 (0000ms, 0534ms total)
T132C 001:120 JLINK_WriteReg(MSP, 0x20000800)  returns 0x00 (0000ms, 0534ms total)
T132C 001:120 JLINK_WriteReg(PSP, 0x20000800)  returns 0x00 (0000ms, 0534ms total)
T132C 001:120 JLINK_WriteReg(CFBP, 0x00000000)  returns 0x00 (0000ms, 0534ms total)
T132C 001:120 JLINK_SetBPEx(Addr = 0x20000000, Type = 0xFFFFFFF2)  returns 0x0000000C (0000ms, 0534ms total)
T132C 001:120 JLINK_Go() -- CPU_ReadMem(4 bytes @ 0xE0001000) (0003ms, 0537ms total)
T132C 001:123 JLINK_IsHalted()  returns FALSE (0001ms, 0538ms total)
T132C 001:125 JLINK_IsHalted()  returns FALSE (0000ms, 0537ms total)
T132C 001:126 JLINK_IsHalted()  returns FALSE (0000ms, 0537ms total)
T132C 001:127 JLINK_IsHalted()  returns FALSE (0000ms, 0537ms total)
T132C 001:128 JLINK_IsHalted()  returns FALSE (0001ms, 0538ms total)
T132C 001:130 JLINK_IsHalted()  returns FALSE (0001ms, 0538ms total)
T132C 001:132 JLINK_IsHalted()  returns FALSE (0000ms, 0537ms total)
T132C 001:133 JLINK_IsHalted()  returns FALSE (0000ms, 0537ms total)
T132C 001:136 JLINK_IsHalted()  returns FALSE (0000ms, 0537ms total)
T132C 001:137 JLINK_IsHalted()  returns FALSE (0000ms, 0537ms total)
T132C 001:138 JLINK_IsHalted()  returns FALSE (0000ms, 0537ms total)
T132C 001:139 JLINK_IsHalted()  returns FALSE (0000ms, 0537ms total)
T132C 001:140 JLINK_IsHalted()  returns FALSE (0000ms, 0537ms total)
T132C 001:141 JLINK_IsHalted()  returns FALSE (0001ms, 0538ms total)
T132C 001:143 JLINK_IsHalted()  returns FALSE (0000ms, 0537ms total)
T132C 001:144 JLINK_IsHalted()  returns FALSE (0001ms, 0538ms total)
T132C 001:146 JLINK_IsHalted()  returns FALSE (0000ms, 0537ms total)
T132C 001:147 JLINK_IsHalted()  returns FALSE (0000ms, 0537ms total)
T132C 001:148 JLINK_IsHalted()  returns FALSE (0000ms, 0537ms total)
T132C 001:152 JLINK_IsHalted()  returns FALSE (0001ms, 0538ms total)
T132C 001:154 JLINK_IsHalted() -- CPU_ReadMem(2 bytes @ 0x20000000)  returns TRUE (0005ms, 0542ms total)
T132C 001:159 JLINK_ReadReg(R15 (PC))  returns 0x20000000 (0000ms, 0537ms total)
T132C 001:159 JLINK_ClrBPEx(BPHandle = 0x0000000C)  returns 0x00 (0000ms, 0537ms total)
T132C 001:160 JLINK_ReadReg(R0)  returns 0x00000000 (0000ms, 0537ms total)
T132C 001:160 JLINK_WriteMem(0x20000164, 0x029C Bytes, ...) - Data: 3D 22 25 73 22 2C 22 25 73 22 2C 31 2C 25 64 00 ... -- CPU_WriteMem(668 bytes @ 0x20000164)  returns 0x29C (0006ms, 0543ms total)
T132C 001:166 JLINK_WriteMem(0x20000400, 0x0164 Bytes, ...) - Data: 01 F0 48 F9 80 46 B8 F1 00 0F 09 D0 47 A1 1B 48 ... -- CPU_WriteMem(356 bytes @ 0x20000400)  returns 0x164 (0004ms, 0547ms total)
T132C 001:170 JLINK_WriteReg(R0, 0x08002000)  returns 0x00 (0000ms, 0547ms total)
T132C 001:170 JLINK_WriteReg(R1, 0x00000400)  returns 0x00 (0000ms, 0547ms total)
T132C 001:170 JLINK_WriteReg(R2, 0x20000164)  returns 0x00 (0000ms, 0547ms total)
T132C 001:170 JLINK_WriteReg(R3, 0x00000000)  returns 0x00 (0000ms, 0547ms total)
T132C 001:170 JLINK_WriteReg(R4, 0x00000000)  returns 0x00 (0000ms, 0547ms total)
T132C 001:170 JLINK_WriteReg(R5, 0x00000000)  returns 0x00 (0000ms, 0547ms total)
T132C 001:170 JLINK_WriteReg(R6, 0x00000000)  returns 0x00 (0000ms, 0547ms total)
T132C 001:170 JLINK_WriteReg(R7, 0x00000000)  returns 0x00 (0000ms, 0547ms total)
T132C 001:170 JLINK_WriteReg(R8, 0x00000000)  returns 0x00 (0000ms, 0547ms total)
T132C 001:170 JLINK_WriteReg(R9, 0x20000160)  returns 0x00 (0000ms, 0547ms total)
T132C 001:170 JLINK_WriteReg(R10, 0x00000000)  returns 0x00 (0000ms, 0547ms total)
T132C 001:170 JLINK_WriteReg(R11, 0x00000000)  returns 0x00 (0000ms, 0547ms total)
T132C 001:170 JLINK_WriteReg(R12, 0x00000000)  returns 0x00 (0000ms, 0547ms total)
T132C 001:170 JLINK_WriteReg(R13 (SP), 0x20000800)  returns 0x00 (0000ms, 0547ms total)
